
T1918 000:373 SEGGER J-Link V5.12e Log File (0001ms, 0278ms total)
T1918 000:373 DLL Compiled: Apr 29 2016 15:03:58 (0001ms, 0278ms total)
T1918 000:373 Logging started @ 2016-07-19 16:01 (0001ms, 0278ms total)
T1918 000:374 JLINK_SetWarnOutHandler(...) (0000ms, 0278ms total)
T1918 000:374 JLINK_OpenEx(...)
Firmware: J-Link ARM-OB STM32 compiled Aug 22 2012 19:52:04
Hardware: V7.00
S/N: 20090928
Feature(s): RDI,FlashDL,FlashBP,JFlash,GDBFull  returns O.K. (0280ms, 0558ms total)
T1918 000:654 JLINK_SetErrorOutHandler(...) (0000ms, 0558ms total)
T1918 000:654 JLINK_ExecCommand("ProjectFile = "C:\Users\Koala\Documents\Coding\STM32\Marx_Menu_Ver2\MDK\JLinkSettings.ini"", ...)  returns 0x00 (0003ms, 0561ms total)
T1918 000:670 JLINK_ExecCommand("Device = STM32F103C8", ...)Device "STM32F103C8" selected.  returns 0x00 (0036ms, 0597ms total)
T1918 000:706 JLINK_ExecCommand("DisableConnectionTimeout", ...)  returns 0x01 (0000ms, 0597ms total)
T1918 000:706 JLINK_GetHardwareVersion()  returns 0x11170 (0000ms, 0597ms total)
T1918 000:706 JLINK_GetDLLVersion()  returns 51205 (0000ms, 0597ms total)
T1918 000:706 JLINK_GetFirmwareString(...) (0000ms, 0597ms total)
T1918 000:736 JLINK_GetDLLVersion()  returns 51205 (0000ms, 0597ms total)
T1918 000:736 JLINK_GetCompileDateTime() (0000ms, 0597ms total)
T1918 000:745 JLINK_GetFirmwareString(...) (0000ms, 0597ms total)
T1918 000:753 JLINK_GetHardwareVersion()  returns 0x11170 (0000ms, 0597ms total)
T1918 000:777 JLINK_TIF_Select(JLINKARM_TIF_SWD)  returns 0x00 (0000ms, 0597ms total)
T1918 000:777 JLINK_SetSpeed(5000) (0000ms, 0597ms total)
T1918 000:777 JLINK_GetId() >0x108 TIF>Found SWD-DP with ID 0x1BA01477 >0x0D TIF> >0x28 TIF> >0x0D TIF> >0x28 TIF> >0x0D TIF> >0x28 TIF> >0x0D TIF> >0x28 TIF> >0x0D TIF> >0x21 TIF> >0x0D TIF> >0x28 TIF> >0x0D TIF> >0x28 TIF> >0x0D TIF> >0x28 TIF> >0x0D TIF> >0x21 TIF> >0x0D TIF> >0x21 TIF> >0x0D TIF> >0x28 TIF> >0x0D TIF> >0x21 TIF> >0x0D TIF> >0x21 TIF> >0x0D TIF> >0x28 TIF> >0x0D TIF> >0x21 TIF> >0x0D TIF> >0x21 TIF> >0x0D TIF> >0x28 TIF> >0x0D TIF> >0x21 TIF> >0x0D TIF> >0x21 TIF> >0x0D TIF>
 >0x28 TIF> >0x0D TIF> >0x21 TIF> >0x0D TIF> >0x21 TIF> >0x0D TIF> >0x28 TIF> >0x0D TIF> >0x21 TIF> >0x0D TIF> >0x21 TIF> >0x108 TIF>Found SWD-DP with ID 0x1BA01477 >0x0D TIF> >0x28 TIF> >0x0D TIF> >0x28 TIF> >0x0D TIF> >0x28 TIF> >0x0D TIF> >0x28 TIF> >0x0D TIF> >0x21 TIF> >0x0D TIF> >0x28 TIF> >0x0D TIF> >0x28 TIF> >0x0D TIF> >0x21 TIF> >0x0D TIF> >0x21 TIF> >0x0D TIF> >0x21 TIF> >0x0D TIF> >0x28 TIF> >0x0D TIF> >0x28 TIF> >0x0D TIF> >0x28 TIF> >0x0D TIF> >0x21 TIF> >0x0D TIF> >0x21 TIF> >0x0D TIF>
 >0x28 TIF> >0x0D TIF> >0x21 TIF> >0x0D TIF> >0x21 TIF>Found Cortex-M3 r1p1, Little endian. -- CPU_ReadMem(4 bytes @ 0xE000EDF0) -- CPU_ReadMem(4 bytes @ 0xE0002000)FPUnit: 6 code (BP) slots and 2 literal slots -- CPU_ReadMem(4 bytes @ 0xE000EDFC) -- CPU_ReadMem(4 bytes @ 0xE0001000) -- CPU_WriteMem(4 bytes @ 0xE0001000) -- CPU_ReadMem(4 bytes @ 0xE000ED88) -- CPU_WriteMem(4 bytes @ 0xE000ED88) -- CPU_ReadMem(4 bytes @ 0xE000ED88) -- CPU_WriteMem(4 bytes @ 0xE000ED88)CoreSight components:
ROMTbl 0 @ E00FF000 -- CPU_ReadMem(16 bytes @ 0xE00FF000) -- CPU_ReadMem(16 bytes @ 0xE000EFF0) -- CPU_ReadMem(16 bytes @ 0xE000EFE0)ROMTbl 0 [0]: FFF0F000, CID: B105E00D, PID: 001BB000 SCS -- CPU_ReadMem(16 bytes @ 0xE0001FF0) -- CPU_ReadMem(16 bytes @ 0xE0001FE0)ROMTbl 0 [1]: FFF02000, CID: B105E00D, PID: 001BB002 DWT -- CPU_ReadMem(16 bytes @ 0xE0002FF0) -- CPU_ReadMem(16 bytes @ 0xE0002FE0)ROMTbl 0 [2]: FFF03000, CID: B105E00D, PID: 000BB003 FPB -- CPU_ReadMem(16 bytes @ 0xE0000FF0)
 -- CPU_ReadMem(16 bytes @ 0xE0000FE0)ROMTbl 0 [3]: FFF01000, CID: B105E00D, PID: 001BB001 ITM -- CPU_ReadMem(16 bytes @ 0xE00FF010) -- CPU_ReadMem(16 bytes @ 0xE0040FF0) -- CPU_ReadMem(16 bytes @ 0xE0040FE0)ROMTbl 0 [4]: FFF41000, CID: B105900D, PID: 001BB923 TPIU-Lite >0x0D TIF> >0x21 TIF>  returns 0x1BA01477 (0127ms, 0724ms total)
T1918 000:904 JLINK_GetDLLVersion()  returns 51205 (0000ms, 0724ms total)
T1918 000:904 JLINK_CORE_GetFound()  returns 0x30000FF (0000ms, 0724ms total)
T1918 000:904 JLINK_GetDebugInfo(0x100) -- Value=0xE00FF000  returns 0x00 (0000ms, 0724ms total)
T1918 000:908 JLINK_GetDebugInfo(0x100) -- Value=0xE00FF000  returns 0x00 (0000ms, 0724ms total)
T1918 000:908 JLINK_GetDebugInfo(0x101) -- Value=0x00000000  returns 0x00 (0000ms, 0724ms total)
T1918 000:908 JLINK_ReadMem (0xE0041FF0, 0x0010 Bytes, ...) -- CPU is running -- CPU_ReadMem(16 bytes @ 0xE0041FF0) - Data: 00 00 00 00 00 00 00 00 00 00 00 00 00 00 00 00  returns 0x00 (0001ms, 0725ms total)
T1918 000:909 JLINK_GetDebugInfo(0x102) -- Value=0x00000000  returns 0x00 (0000ms, 0725ms total)
T1918 000:909 JLINK_GetDebugInfo(0x103) -- Value=0xE0040000  returns 0x00 (0000ms, 0725ms total)
T1918 000:909 JLINK_GetDebugInfo(0x104) -- Value=0xE0000000  returns 0x00 (0000ms, 0725ms total)
T1918 000:909 JLINK_GetDebugInfo(0x105) -- Value=0xE0001000  returns 0x00 (0000ms, 0725ms total)
T1918 000:909 JLINK_GetDebugInfo(0x106) -- Value=0xE0002000  returns 0x00 (0000ms, 0725ms total)
T1918 000:909 JLINK_GetDebugInfo(0x107) -- Value=0xE000E000  returns 0x00 (0000ms, 0725ms total)
T1918 000:909 JLINK_GetDebugInfo(0x10C) -- Value=0xE000EDF0  returns 0x00 (0000ms, 0725ms total)
T1918 000:909 JLINK_ReadMemU32(0xE000ED00, 0x0001 Items, ...) -- CPU is running -- CPU_ReadMem(4 bytes @ 0xE000ED00) - Data: 31 C2 1F 41  returns 0x01 (0000ms, 0725ms total)
T1918 000:909 JLINK_SetResetType(JLINKARM_RESET_TYPE_NORMAL)  returns JLINKARM_RESET_TYPE_NORMAL (0000ms, 0725ms total)
T1918 000:909 JLINK_Reset() -- CPU is running -- CPU_WriteMem(4 bytes @ 0xE000EDF0) -- CPU is running -- CPU_WriteMem(4 bytes @ 0xE000EDFC) >0x35 TIF> -- CPU is running -- CPU_WriteMem(4 bytes @ 0xE000ED0C) -- CPU is running -- CPU_ReadMem(4 bytes @ 0xE000EDF0) -- CPU is running -- CPU_ReadMem(4 bytes @ 0xE000EDF0) -- CPU is running -- CPU_ReadMem(4 bytes @ 0xE000EDF0) -- CPU is running -- CPU_ReadMem(4 bytes @ 0xE000EDF0) -- CPU is running -- CPU_ReadMem(4 bytes @ 0xE000EDF0) -- CPU is running
 -- CPU_ReadMem(4 bytes @ 0xE000EDF0) -- CPU is running -- CPU_ReadMem(4 bytes @ 0xE000EDF0) -- CPU is running -- CPU_ReadMem(4 bytes @ 0xE000EDF0) -- CPU is running -- CPU_ReadMem(4 bytes @ 0xE000EDF0) -- CPU is running -- CPU_ReadMem(4 bytes @ 0xE000EDF0) -- CPU is running -- CPU_ReadMem(4 bytes @ 0xE000EDF0) -- CPU is running -- CPU_ReadMem(4 bytes @ 0xE000EDF0) -- CPU is running -- CPU_ReadMem(4 bytes @ 0xE000EDF0) -- CPU is running -- CPU_ReadMem(4 bytes @ 0xE000EDF0) -- CPU is running
 -- CPU_ReadMem(4 bytes @ 0xE000EDF0) -- CPU is running -- CPU_ReadMem(4 bytes @ 0xE000EDF0) -- CPU is running -- CPU_ReadMem(4 bytes @ 0xE000EDF0) -- CPU is running -- CPU_ReadMem(4 bytes @ 0xE000EDF0) -- CPU is running -- CPU_ReadMem(4 bytes @ 0xE000EDF0) -- CPU is running -- CPU_ReadMem(4 bytes @ 0xE000EDF0) -- CPU is running -- CPU_ReadMem(4 bytes @ 0xE000EDF0) -- CPU is running -- CPU_ReadMem(4 bytes @ 0xE000EDF0) -- CPU is running -- CPU_ReadMem(4 bytes @ 0xE000EDF0) -- CPU is running
 -- CPU_ReadMem(4 bytes @ 0xE000EDF0) -- CPU is running -- CPU_ReadMem(4 bytes @ 0xE000EDF0) -- CPU is running -- CPU_ReadMem(4 bytes @ 0xE000EDF0) -- CPU is running -- CPU_ReadMem(4 bytes @ 0xE000EDF0) -- CPU is running -- CPU_ReadMem(4 bytes @ 0xE000EDF0) -- CPU is running -- CPU_ReadMem(4 bytes @ 0xE000EDF0) -- CPU is running -- CPU_ReadMem(4 bytes @ 0xE000EDF0) -- CPU is running -- CPU_ReadMem(4 bytes @ 0xE000EDF0) -- CPU is running -- CPU_ReadMem(4 bytes @ 0xE000EDF0) -- CPU is running
 -- CPU_ReadMem(4 bytes @ 0xE000EDF0) -- CPU is running -- CPU_ReadMem(4 bytes @ 0xE000EDF0) -- CPU is running -- CPU_ReadMem(4 bytes @ 0xE000EDF0) -- CPU is running -- CPU_ReadMem(4 bytes @ 0xE000EDF0) -- CPU is running -- CPU_ReadMem(4 bytes @ 0xE000EDF0) -- CPU is running -- CPU_ReadMem(4 bytes @ 0xE000EDF0) -- CPU is running -- CPU_ReadMem(4 bytes @ 0xE000EDF0) -- CPU is running -- CPU_ReadMem(4 bytes @ 0xE000EDF0) -- CPU is running -- CPU_ReadMem(4 bytes @ 0xE000EDF0) -- CPU is running
 -- CPU_ReadMem(4 bytes @ 0xE000EDF0) -- CPU is running -- CPU_ReadMem(4 bytes @ 0xE000EDF0) -- CPU is running -- CPU_ReadMem(4 bytes @ 0xE000EDF0) -- CPU is running -- CPU_ReadMem(4 bytes @ 0xE000EDF0) -- CPU is running -- CPU_ReadMem(4 bytes @ 0xE000EDF0) -- CPU is running -- CPU_ReadMem(4 bytes @ 0xE000EDF0) -- CPU is running -- CPU_ReadMem(4 bytes @ 0xE000EDF0) -- CPU is running -- CPU_ReadMem(4 bytes @ 0xE000EDF0) -- CPU is running -- CPU_ReadMem(4 bytes @ 0xE000EDF0) -- CPU is running
 -- CPU_WriteMem(4 bytes @ 0xE000EDF0) -- CPU is running -- CPU_WriteMem(4 bytes @ 0xE000EDFC) -- CPU is running -- CPU_ReadMem(4 bytes @ 0xE000EDF0) -- CPU_WriteMem(4 bytes @ 0xE0002000) -- CPU_ReadMem(4 bytes @ 0xE000EDFC) -- CPU_ReadMem(4 bytes @ 0xE0001000) (0050ms, 0775ms total)
T1918 000:960 JLINK_Halt()  returns 0x00 (0000ms, 0775ms total)
T1918 000:960 JLINK_IsHalted()  returns TRUE (0000ms, 0775ms total)
T1918 000:960 JLINK_ReadMemU32(0xE000EDF0, 0x0001 Items, ...) -- CPU_ReadMem(4 bytes @ 0xE000EDF0) - Data: 03 00 03 00  returns 0x01 (0000ms, 0775ms total)
T1918 000:960 JLINK_WriteU32(0xE000EDF0, 0xA05F0003) -- CPU_WriteMem(4 bytes @ 0xE000EDF0)  returns 0x00 (0001ms, 0776ms total)
T1918 000:961 JLINK_WriteU32(0xE000EDFC, 0x01000000) -- CPU_WriteMem(4 bytes @ 0xE000EDFC)  returns 0x00 (0001ms, 0777ms total)
T1918 000:989 JLINK_GetHWStatus(...)  returns 0x00 (0000ms, 0777ms total)
T1918 001:002 JLINK_GetNumBPUnits(Type = 0xFFFFFF00)  returns 0x06 (0000ms, 0777ms total)
T1918 001:002 JLINK_GetNumBPUnits(Type = 0xF0)  returns 0x2000 (0000ms, 0777ms total)
T1918 001:002 JLINK_GetNumWPUnits()  returns 0x04 (0000ms, 0777ms total)
T1918 001:014 JLINK_GetSpeed()  returns 0xFA0 (0000ms, 0777ms total)
T1918 001:034 JLINK_ReadMemU32(0xE000E004, 0x0001 Items, ...) -- CPU_ReadMem(4 bytes @ 0xE000E004) - Data: 01 00 00 00  returns 0x01 (0001ms, 0778ms total)
T1918 001:035 JLINK_ReadMemU32(0xE000E004, 0x0001 Items, ...) -- CPU_ReadMem(4 bytes @ 0xE000E004) - Data: 01 00 00 00  returns 0x01 (0000ms, 0778ms total)
T1918 001:035 JLINK_WriteMem(0xE0001000, 0x001C Bytes, ...) - Data: 01 00 00 00 00 00 00 00 00 00 00 00 00 00 00 00 ... -- CPU_WriteMem(28 bytes @ 0xE0001000)  returns 0x1C (0002ms, 0780ms total)
T1918 001:037 JLINK_ReadMem (0xE0001000, 0x001C Bytes, ...) -- CPU_ReadMem(28 bytes @ 0xE0001000) - Data: 01 00 00 40 00 00 00 00 00 00 00 00 00 00 00 00 ...  returns 0x00 (0001ms, 0781ms total)
T1918 001:038 JLINK_Halt()  returns 0x00 (0000ms, 0781ms total)
T1918 001:038 JLINK_IsHalted()  returns TRUE (0000ms, 0781ms total)
T1918 001:042 JLINK_WriteMem(0x20000000, 0x0164 Bytes, ...) - Data: 00 BE 0A E0 0D 78 2D 06 68 40 08 24 40 00 00 D3 ... -- CPU_WriteMem(356 bytes @ 0x20000000)  returns 0x164 (0005ms, 0786ms total)
T1918 001:047 JLINK_WriteReg(R0, 0x08000000)  returns 0x00 (0000ms, 0786ms total)
T1918 001:047 JLINK_WriteReg(R1, 0x044AA200)  returns 0x00 (0000ms, 0786ms total)
T1918 001:047 JLINK_WriteReg(R2, 0x00000001)  returns 0x00 (0000ms, 0786ms total)
T1918 001:047 JLINK_WriteReg(R3, 0x00000000)  returns 0x00 (0000ms, 0786ms total)
T1918 001:047 JLINK_WriteReg(R4, 0x00000000)  returns 0x00 (0000ms, 0786ms total)
T1918 001:047 JLINK_WriteReg(R5, 0x00000000)  returns 0x00 (0000ms, 0786ms total)
T1918 001:047 JLINK_WriteReg(R6, 0x00000000)  returns 0x00 (0000ms, 0786ms total)
T1918 001:047 JLINK_WriteReg(R7, 0x00000000)  returns 0x00 (0000ms, 0786ms total)
T1918 001:047 JLINK_WriteReg(R8, 0x00000000)  returns 0x00 (0000ms, 0786ms total)
T1918 001:047 JLINK_WriteReg(R9, 0x20000160)  returns 0x00 (0000ms, 0786ms total)
T1918 001:047 JLINK_WriteReg(R10, 0x00000000)  returns 0x00 (0000ms, 0786ms total)
T1918 001:047 JLINK_WriteReg(R11, 0x00000000)  returns 0x00 (0000ms, 0786ms total)
T1918 001:047 JLINK_WriteReg(R12, 0x00000000)  returns 0x00 (0000ms, 0786ms total)
T1918 001:047 JLINK_WriteReg(R13 (SP), 0x20001000)  returns 0x00 (0000ms, 0786ms total)
T1918 001:047 JLINK_WriteReg(R14, 0x20000001)  returns 0x00 (0000ms, 0786ms total)
T1918 001:047 JLINK_WriteReg(R15 (PC), 0x20000038)  returns 0x00 (0000ms, 0786ms total)
T1918 001:047 JLINK_WriteReg(XPSR, 0x01000000)  returns 0x00 (0000ms, 0786ms total)
T1918 001:047 JLINK_WriteReg(MSP, 0x20001000)  returns 0x00 (0000ms, 0786ms total)
T1918 001:047 JLINK_WriteReg(PSP, 0x20001000)  returns 0x00 (0000ms, 0786ms total)
T1918 001:047 JLINK_WriteReg(CFBP, 0x00000000)  returns 0x00 (0000ms, 0786ms total)
T1918 001:047 JLINK_SetBPEx(Addr = 0x20000000, Type = 0xFFFFFFF2) -- CPU_ReadMem(2 bytes @ 0x20000000)  returns 0x00000001 (0001ms, 0787ms total)
T1918 001:048 JLINK_Go() -- CPU_WriteMem(2 bytes @ 0x20000000) -- CPU_ReadMem(4 bytes @ 0xE0001000) -- CPU_WriteMem(4 bytes @ 0xE0002008) -- CPU_WriteMem(4 bytes @ 0xE000200C) -- CPU_WriteMem(4 bytes @ 0xE0002010) -- CPU_WriteMem(4 bytes @ 0xE0002014) -- CPU_WriteMem(4 bytes @ 0xE0002018) -- CPU_WriteMem(4 bytes @ 0xE000201C) -- CPU_WriteMem(4 bytes @ 0xE0001004) (0006ms, 0793ms total)
T1918 001:054 JLINK_IsHalted() -- CPU_ReadMem(2 bytes @ 0x20000000)  returns TRUE (0005ms, 0798ms total)
T1918 001:059 JLINK_ReadReg(R15 (PC))  returns 0x20000000 (0000ms, 0793ms total)
T1918 001:059 JLINK_ClrBPEx(BPHandle = 0x00000001)  returns 0x00 (0000ms, 0793ms total)
T1918 001:059 JLINK_ReadReg(R0)  returns 0x00000000 (0000ms, 0793ms total)
T1918 001:060 JLINK_WriteReg(R0, 0x08000000)  returns 0x00 (0000ms, 0793ms total)
T1918 001:060 JLINK_WriteReg(R1, 0x044AA200)  returns 0x00 (0000ms, 0793ms total)
T1918 001:060 JLINK_WriteReg(R2, 0x00000001)  returns 0x00 (0000ms, 0793ms total)
T1918 001:060 JLINK_WriteReg(R3, 0x00000000)  returns 0x00 (0000ms, 0793ms total)
T1918 001:060 JLINK_WriteReg(R4, 0x00000000)  returns 0x00 (0000ms, 0793ms total)
T1918 001:060 JLINK_WriteReg(R5, 0x00000000)  returns 0x00 (0000ms, 0793ms total)
T1918 001:060 JLINK_WriteReg(R6, 0x00000000)  returns 0x00 (0000ms, 0793ms total)
T1918 001:060 JLINK_WriteReg(R7, 0x00000000)  returns 0x00 (0000ms, 0793ms total)
T1918 001:060 JLINK_WriteReg(R8, 0x00000000)  returns 0x00 (0000ms, 0793ms total)
T1918 001:060 JLINK_WriteReg(R9, 0x20000160)  returns 0x00 (0000ms, 0793ms total)
T1918 001:060 JLINK_WriteReg(R10, 0x00000000)  returns 0x00 (0001ms, 0794ms total)
T1918 001:061 JLINK_WriteReg(R11, 0x00000000)  returns 0x00 (0000ms, 0794ms total)
T1918 001:061 JLINK_WriteReg(R12, 0x00000000)  returns 0x00 (0000ms, 0794ms total)
T1918 001:061 JLINK_WriteReg(R13 (SP), 0x20001000)  returns 0x00 (0000ms, 0794ms total)
T1918 001:061 JLINK_WriteReg(R14, 0x20000001)  returns 0x00 (0000ms, 0794ms total)
T1918 001:061 JLINK_WriteReg(R15 (PC), 0x2000007C)  returns 0x00 (0000ms, 0794ms total)
T1918 001:061 JLINK_WriteReg(XPSR, 0x01000000)  returns 0x00 (0000ms, 0794ms total)
T1918 001:061 JLINK_WriteReg(MSP, 0x20001000)  returns 0x00 (0000ms, 0794ms total)
T1918 001:061 JLINK_WriteReg(PSP, 0x20001000)  returns 0x00 (0000ms, 0794ms total)
T1918 001:061 JLINK_WriteReg(CFBP, 0x00000000)  returns 0x00 (0000ms, 0794ms total)
T1918 001:061 JLINK_SetBPEx(Addr = 0x20000000, Type = 0xFFFFFFF2)  returns 0x00000002 (0000ms, 0794ms total)
T1918 001:061 JLINK_Go() -- CPU_ReadMem(4 bytes @ 0xE0001000) (0003ms, 0797ms total)
T1918 001:064 JLINK_IsHalted()  returns FALSE (0000ms, 0797ms total)
T1918 001:126 JLINK_IsHalted() -- CPU_ReadMem(2 bytes @ 0x20000000)  returns TRUE (0004ms, 0801ms total)
T1918 001:130 JLINK_ReadReg(R15 (PC))  returns 0x20000000 (0000ms, 0797ms total)
T1918 001:130 JLINK_ClrBPEx(BPHandle = 0x00000002)  returns 0x00 (0000ms, 0797ms total)
T1918 001:130 JLINK_ReadReg(R0)  returns 0x00000000 (0000ms, 0797ms total)
T1918 001:184 JLINK_WriteReg(R0, 0x00000001)  returns 0x00 (0000ms, 0797ms total)
T1918 001:184 JLINK_WriteReg(R1, 0x044AA200)  returns 0x00 (0000ms, 0797ms total)
T1918 001:184 JLINK_WriteReg(R2, 0x00000001)  returns 0x00 (0000ms, 0797ms total)
T1918 001:184 JLINK_WriteReg(R3, 0x00000000)  returns 0x00 (0000ms, 0797ms total)
T1918 001:184 JLINK_WriteReg(R4, 0x00000000)  returns 0x00 (0000ms, 0797ms total)
T1918 001:184 JLINK_WriteReg(R5, 0x00000000)  returns 0x00 (0000ms, 0797ms total)
T1918 001:184 JLINK_WriteReg(R6, 0x00000000)  returns 0x00 (0000ms, 0797ms total)
T1918 001:184 JLINK_WriteReg(R7, 0x00000000)  returns 0x00 (0000ms, 0797ms total)
T1918 001:184 JLINK_WriteReg(R8, 0x00000000)  returns 0x00 (0000ms, 0797ms total)
T1918 001:184 JLINK_WriteReg(R9, 0x20000160)  returns 0x00 (0000ms, 0797ms total)
T1918 001:184 JLINK_WriteReg(R10, 0x00000000)  returns 0x00 (0000ms, 0797ms total)
T1918 001:184 JLINK_WriteReg(R11, 0x00000000)  returns 0x00 (0000ms, 0797ms total)
T1918 001:184 JLINK_WriteReg(R12, 0x00000000)  returns 0x00 (0000ms, 0797ms total)
T1918 001:184 JLINK_WriteReg(R13 (SP), 0x20001000)  returns 0x00 (0000ms, 0797ms total)
T1918 001:184 JLINK_WriteReg(R14, 0x20000001)  returns 0x00 (0000ms, 0797ms total)
T1918 001:184 JLINK_WriteReg(R15 (PC), 0x2000006A)  returns 0x00 (0000ms, 0797ms total)
T1918 001:184 JLINK_WriteReg(XPSR, 0x01000000)  returns 0x00 (0000ms, 0797ms total)
T1918 001:184 JLINK_WriteReg(MSP, 0x20001000)  returns 0x00 (0001ms, 0798ms total)
T1918 001:185 JLINK_WriteReg(PSP, 0x20001000)  returns 0x00 (0000ms, 0798ms total)
T1918 001:185 JLINK_WriteReg(CFBP, 0x00000000)  returns 0x00 (0000ms, 0798ms total)
T1918 001:185 JLINK_SetBPEx(Addr = 0x20000000, Type = 0xFFFFFFF2)  returns 0x00000003 (0000ms, 0798ms total)
T1918 001:185 JLINK_Go() -- CPU_ReadMem(4 bytes @ 0xE0001000) (0002ms, 0800ms total)
T1918 001:188 JLINK_IsHalted() -- CPU_ReadMem(2 bytes @ 0x20000000)  returns TRUE (0004ms, 0804ms total)
T1918 001:192 JLINK_ReadReg(R15 (PC))  returns 0x20000000 (0000ms, 0800ms total)
T1918 001:192 JLINK_ClrBPEx(BPHandle = 0x00000003)  returns 0x00 (0000ms, 0800ms total)
T1918 001:192 JLINK_ReadReg(R0)  returns 0x00000000 (0000ms, 0800ms total)
T1918 001:215 JLINK_WriteMem(0x20000000, 0x0164 Bytes, ...) - Data: 00 BE 0A E0 0D 78 2D 06 68 40 08 24 40 00 00 D3 ... -- CPU_WriteMem(356 bytes @ 0x20000000)  returns 0x164 (0006ms, 0806ms total)
T1918 001:221 JLINK_WriteReg(R0, 0x08000000)  returns 0x00 (0000ms, 0806ms total)
T1918 001:221 JLINK_WriteReg(R1, 0x044AA200)  returns 0x00 (0000ms, 0806ms total)
T1918 001:221 JLINK_WriteReg(R2, 0x00000002)  returns 0x00 (0000ms, 0806ms total)
T1918 001:221 JLINK_WriteReg(R3, 0x00000000)  returns 0x00 (0000ms, 0806ms total)
T1918 001:221 JLINK_WriteReg(R4, 0x00000000)  returns 0x00 (0000ms, 0806ms total)
T1918 001:221 JLINK_WriteReg(R5, 0x00000000)  returns 0x00 (0000ms, 0806ms total)
T1918 001:221 JLINK_WriteReg(R6, 0x00000000)  returns 0x00 (0000ms, 0806ms total)
T1918 001:221 JLINK_WriteReg(R7, 0x00000000)  returns 0x00 (0000ms, 0806ms total)
T1918 001:221 JLINK_WriteReg(R8, 0x00000000)  returns 0x00 (0000ms, 0806ms total)
T1918 001:221 JLINK_WriteReg(R9, 0x20000160)  returns 0x00 (0000ms, 0806ms total)
T1918 001:221 JLINK_WriteReg(R10, 0x00000000)  returns 0x00 (0000ms, 0806ms total)
T1918 001:221 JLINK_WriteReg(R11, 0x00000000)  returns 0x00 (0001ms, 0807ms total)
T1918 001:222 JLINK_WriteReg(R12, 0x00000000)  returns 0x00 (0000ms, 0807ms total)
T1918 001:222 JLINK_WriteReg(R13 (SP), 0x20001000)  returns 0x00 (0000ms, 0807ms total)
T1918 001:222 JLINK_WriteReg(R14, 0x20000001)  returns 0x00 (0000ms, 0807ms total)
T1918 001:222 JLINK_WriteReg(R15 (PC), 0x20000038)  returns 0x00 (0000ms, 0807ms total)
T1918 001:222 JLINK_WriteReg(XPSR, 0x01000000)  returns 0x00 (0000ms, 0807ms total)
T1918 001:222 JLINK_WriteReg(MSP, 0x20001000)  returns 0x00 (0000ms, 0807ms total)
T1918 001:222 JLINK_WriteReg(PSP, 0x20001000)  returns 0x00 (0000ms, 0807ms total)
T1918 001:222 JLINK_WriteReg(CFBP, 0x00000000)  returns 0x00 (0000ms, 0807ms total)
T1918 001:222 JLINK_SetBPEx(Addr = 0x20000000, Type = 0xFFFFFFF2) -- CPU_ReadMem(2 bytes @ 0x20000000)  returns 0x00000004 (0001ms, 0808ms total)
T1918 001:223 JLINK_Go() -- CPU_WriteMem(2 bytes @ 0x20000000) -- CPU_ReadMem(4 bytes @ 0xE0001000) (0003ms, 0811ms total)
T1918 001:226 JLINK_IsHalted() -- CPU_ReadMem(2 bytes @ 0x20000000)  returns TRUE (0004ms, 0815ms total)
T1918 001:230 JLINK_ReadReg(R15 (PC))  returns 0x20000000 (0001ms, 0812ms total)
T1918 001:231 JLINK_ClrBPEx(BPHandle = 0x00000004)  returns 0x00 (0000ms, 0812ms total)
T1918 001:231 JLINK_ReadReg(R0)  returns 0x00000000 (0000ms, 0812ms total)
T1918 001:232 JLINK_WriteMem(0x20000164, 0x0400 Bytes, ...) - Data: 08 40 00 20 C1 46 00 08 C9 46 00 08 CB 46 00 08 ... -- CPU_WriteMem(1024 bytes @ 0x20000164)  returns 0x400 (0012ms, 0824ms total)
T1918 001:244 JLINK_WriteReg(R0, 0x08000000)  returns 0x00 (0000ms, 0824ms total)
T1918 001:244 JLINK_WriteReg(R1, 0x00000400)  returns 0x00 (0000ms, 0824ms total)
T1918 001:244 JLINK_WriteReg(R2, 0x20000164)  returns 0x00 (0000ms, 0824ms total)
T1918 001:244 JLINK_WriteReg(R3, 0x00000000)  returns 0x00 (0000ms, 0824ms total)
T1918 001:244 JLINK_WriteReg(R4, 0x00000000)  returns 0x00 (0000ms, 0824ms total)
T1918 001:244 JLINK_WriteReg(R5, 0x00000000)  returns 0x00 (0000ms, 0824ms total)
T1918 001:244 JLINK_WriteReg(R6, 0x00000000)  returns 0x00 (0000ms, 0824ms total)
T1918 001:244 JLINK_WriteReg(R7, 0x00000000)  returns 0x00 (0000ms, 0824ms total)
T1918 001:244 JLINK_WriteReg(R8, 0x00000000)  returns 0x00 (0000ms, 0824ms total)
T1918 001:244 JLINK_WriteReg(R9, 0x20000160)  returns 0x00 (0000ms, 0824ms total)
T1918 001:244 JLINK_WriteReg(R10, 0x00000000)  returns 0x00 (0001ms, 0825ms total)
T1918 001:245 JLINK_WriteReg(R11, 0x00000000)  returns 0x00 (0000ms, 0825ms total)
T1918 001:245 JLINK_WriteReg(R12, 0x00000000)  returns 0x00 (0000ms, 0825ms total)
T1918 001:245 JLINK_WriteReg(R13 (SP), 0x20001000)  returns 0x00 (0000ms, 0825ms total)
T1918 001:245 JLINK_WriteReg(R14, 0x20000001)  returns 0x00 (0000ms, 0825ms total)
T1918 001:245 JLINK_WriteReg(R15 (PC), 0x200000F4)  returns 0x00 (0000ms, 0825ms total)
T1918 001:245 JLINK_WriteReg(XPSR, 0x01000000)  returns 0x00 (0000ms, 0825ms total)
T1918 001:245 JLINK_WriteReg(MSP, 0x20001000)  returns 0x00 (0000ms, 0825ms total)
T1918 001:245 JLINK_WriteReg(PSP, 0x20001000)  returns 0x00 (0000ms, 0825ms total)
T1918 001:245 JLINK_WriteReg(CFBP, 0x00000000)  returns 0x00 (0000ms, 0825ms total)
T1918 001:245 JLINK_SetBPEx(Addr = 0x20000000, Type = 0xFFFFFFF2)  returns 0x00000005 (0000ms, 0825ms total)
T1918 001:245 JLINK_Go() -- CPU_ReadMem(4 bytes @ 0xE0001000) (0003ms, 0828ms total)
T1918 001:248 JLINK_IsHalted()  returns FALSE (0000ms, 0828ms total)
T1918 001:270 JLINK_IsHalted()  returns FALSE (0000ms, 0828ms total)
T1918 001:272 JLINK_IsHalted()  returns FALSE (0000ms, 0828ms total)
T1918 001:274 JLINK_IsHalted()  returns FALSE (0000ms, 0828ms total)
T1918 001:276 JLINK_IsHalted()  returns FALSE (0000ms, 0828ms total)
T1918 001:278 JLINK_IsHalted()  returns FALSE (0000ms, 0828ms total)
T1918 001:280 JLINK_IsHalted() -- CPU_ReadMem(2 bytes @ 0x20000000)  returns TRUE (0004ms, 0832ms total)
T1918 001:284 JLINK_ReadReg(R15 (PC))  returns 0x20000000 (0000ms, 0828ms total)
T1918 001:284 JLINK_ClrBPEx(BPHandle = 0x00000005)  returns 0x00 (0000ms, 0828ms total)
T1918 001:284 JLINK_ReadReg(R0)  returns 0x00000000 (0000ms, 0828ms total)
T1918 001:285 JLINK_WriteMem(0x20000164, 0x0400 Bytes, ...) - Data: 14 46 00 BF 02 21 6D 48 03 F0 15 FA 00 28 F9 D0 ... -- CPU_WriteMem(1024 bytes @ 0x20000164)  returns 0x400 (0013ms, 0841ms total)
T1918 001:299 JLINK_WriteReg(R0, 0x08000400)  returns 0x00 (0000ms, 0841ms total)
T1918 001:299 JLINK_WriteReg(R1, 0x00000400)  returns 0x00 (0000ms, 0841ms total)
T1918 001:299 JLINK_WriteReg(R2, 0x20000164)  returns 0x00 (0000ms, 0841ms total)
T1918 001:299 JLINK_WriteReg(R3, 0x00000000)  returns 0x00 (0000ms, 0841ms total)
T1918 001:299 JLINK_WriteReg(R4, 0x00000000)  returns 0x00 (0000ms, 0841ms total)
T1918 001:299 JLINK_WriteReg(R5, 0x00000000)  returns 0x00 (0000ms, 0841ms total)
T1918 001:299 JLINK_WriteReg(R6, 0x00000000)  returns 0x00 (0000ms, 0841ms total)
T1918 001:299 JLINK_WriteReg(R7, 0x00000000)  returns 0x00 (0000ms, 0841ms total)
T1918 001:299 JLINK_WriteReg(R8, 0x00000000)  returns 0x00 (0000ms, 0841ms total)
T1918 001:299 JLINK_WriteReg(R9, 0x20000160)  returns 0x00 (0000ms, 0841ms total)
T1918 001:299 JLINK_WriteReg(R10, 0x00000000)  returns 0x00 (0000ms, 0841ms total)
T1918 001:299 JLINK_WriteReg(R11, 0x00000000)  returns 0x00 (0000ms, 0841ms total)
T1918 001:299 JLINK_WriteReg(R12, 0x00000000)  returns 0x00 (0000ms, 0841ms total)
T1918 001:299 JLINK_WriteReg(R13 (SP), 0x20001000)  returns 0x00 (0000ms, 0841ms total)
T1918 001:299 JLINK_WriteReg(R14, 0x20000001)  returns 0x00 (0000ms, 0841ms total)
T1918 001:299 JLINK_WriteReg(R15 (PC), 0x200000F4)  returns 0x00 (0000ms, 0841ms total)
T1918 001:299 JLINK_WriteReg(XPSR, 0x01000000)  returns 0x00 (0000ms, 0841ms total)
T1918 001:299 JLINK_WriteReg(MSP, 0x20001000)  returns 0x00 (0000ms, 0841ms total)
T1918 001:300 JLINK_WriteReg(PSP, 0x20001000)  returns 0x00 (0000ms, 0842ms total)
T1918 001:300 JLINK_WriteReg(CFBP, 0x00000000)  returns 0x00 (0000ms, 0842ms total)
T1918 001:300 JLINK_SetBPEx(Addr = 0x20000000, Type = 0xFFFFFFF2)  returns 0x00000006 (0000ms, 0842ms total)
T1918 001:300 JLINK_Go() -- CPU_ReadMem(4 bytes @ 0xE0001000) (0002ms, 0844ms total)
T1918 001:303 JLINK_IsHalted()  returns FALSE (0000ms, 0845ms total)
T1918 001:309 JLINK_IsHalted()  returns FALSE (0000ms, 0845ms total)
T1918 001:311 JLINK_IsHalted()  returns FALSE (0000ms, 0845ms total)
T1918 001:313 JLINK_IsHalted()  returns FALSE (0000ms, 0845ms total)
T1918 001:315 JLINK_IsHalted()  returns FALSE (0000ms, 0845ms total)
T1918 001:321 JLINK_IsHalted()  returns FALSE (0000ms, 0845ms total)
T1918 001:323 JLINK_IsHalted()  returns FALSE (0000ms, 0845ms total)
T1918 001:325 JLINK_IsHalted()  returns FALSE (0000ms, 0845ms total)
T1918 001:327 JLINK_IsHalted()  returns FALSE (0000ms, 0845ms total)
T1918 001:329 JLINK_IsHalted()  returns FALSE (0000ms, 0845ms total)
T1918 001:331 JLINK_IsHalted()  returns FALSE (0000ms, 0845ms total)
T1918 001:333 JLINK_IsHalted()  returns FALSE (0000ms, 0845ms total)
T1918 001:335 JLINK_IsHalted() -- CPU_ReadMem(2 bytes @ 0x20000000)  returns TRUE (0004ms, 0849ms total)
T1918 001:339 JLINK_ReadReg(R15 (PC))  returns 0x20000000 (0000ms, 0845ms total)
T1918 001:339 JLINK_ClrBPEx(BPHandle = 0x00000006)  returns 0x00 (0000ms, 0845ms total)
T1918 001:339 JLINK_ReadReg(R0)  returns 0x00000000 (0000ms, 0845ms total)
T1918 001:340 JLINK_WriteMem(0x20000164, 0x0400 Bytes, ...) - Data: A1 68 88 68 05 F0 FA FD 01 20 A1 68 89 68 08 76 ... -- CPU_WriteMem(1024 bytes @ 0x20000164)  returns 0x400 (0013ms, 0858ms total)
T1918 001:354 JLINK_WriteReg(R0, 0x08000800)  returns 0x00 (0000ms, 0858ms total)
T1918 001:354 JLINK_WriteReg(R1, 0x00000400)  returns 0x00 (0000ms, 0858ms total)
T1918 001:354 JLINK_WriteReg(R2, 0x20000164)  returns 0x00 (0000ms, 0858ms total)
T1918 001:354 JLINK_WriteReg(R3, 0x00000000)  returns 0x00 (0000ms, 0858ms total)
T1918 001:354 JLINK_WriteReg(R4, 0x00000000)  returns 0x00 (0000ms, 0858ms total)
T1918 001:354 JLINK_WriteReg(R5, 0x00000000)  returns 0x00 (0000ms, 0858ms total)
T1918 001:354 JLINK_WriteReg(R6, 0x00000000)  returns 0x00 (0000ms, 0858ms total)
T1918 001:354 JLINK_WriteReg(R7, 0x00000000)  returns 0x00 (0000ms, 0858ms total)
T1918 001:354 JLINK_WriteReg(R8, 0x00000000)  returns 0x00 (0000ms, 0858ms total)
T1918 001:354 JLINK_WriteReg(R9, 0x20000160)  returns 0x00 (0000ms, 0858ms total)
T1918 001:354 JLINK_WriteReg(R10, 0x00000000)  returns 0x00 (0000ms, 0858ms total)
T1918 001:354 JLINK_WriteReg(R11, 0x00000000)  returns 0x00 (0000ms, 0858ms total)
T1918 001:354 JLINK_WriteReg(R12, 0x00000000)  returns 0x00 (0000ms, 0858ms total)
T1918 001:354 JLINK_WriteReg(R13 (SP), 0x20001000)  returns 0x00 (0000ms, 0858ms total)
T1918 001:354 JLINK_WriteReg(R14, 0x20000001)  returns 0x00 (0000ms, 0858ms total)
T1918 001:354 JLINK_WriteReg(R15 (PC), 0x200000F4)  returns 0x00 (0000ms, 0858ms total)
T1918 001:354 JLINK_WriteReg(XPSR, 0x01000000)  returns 0x00 (0000ms, 0858ms total)
T1918 001:354 JLINK_WriteReg(MSP, 0x20001000)  returns 0x00 (0000ms, 0858ms total)
T1918 001:354 JLINK_WriteReg(PSP, 0x20001000)  returns 0x00 (0000ms, 0858ms total)
T1918 001:354 JLINK_WriteReg(CFBP, 0x00000000)  returns 0x00 (0001ms, 0859ms total)
T1918 001:355 JLINK_SetBPEx(Addr = 0x20000000, Type = 0xFFFFFFF2)  returns 0x00000007 (0000ms, 0859ms total)
T1918 001:355 JLINK_Go() -- CPU_ReadMem(4 bytes @ 0xE0001000) (0002ms, 0861ms total)
T1918 001:357 JLINK_IsHalted()  returns FALSE (0001ms, 0862ms total)
T1918 001:364 JLINK_IsHalted()  returns FALSE (0000ms, 0861ms total)
T1918 001:371 JLINK_IsHalted()  returns FALSE (0000ms, 0861ms total)
T1918 001:373 JLINK_IsHalted()  returns FALSE (0000ms, 0861ms total)
T1918 001:375 JLINK_IsHalted()  returns FALSE (0000ms, 0861ms total)
T1918 001:377 JLINK_IsHalted()  returns FALSE (0000ms, 0861ms total)
T1918 001:379 JLINK_IsHalted()  returns FALSE (0000ms, 0861ms total)
T1918 001:381 JLINK_IsHalted()  returns FALSE (0000ms, 0861ms total)
T1918 001:383 JLINK_IsHalted()  returns FALSE (0000ms, 0861ms total)
T1918 001:385 JLINK_IsHalted()  returns FALSE (0000ms, 0861ms total)
T1918 001:387 JLINK_IsHalted()  returns FALSE (0000ms, 0861ms total)
T1918 001:389 JLINK_IsHalted() -- CPU_ReadMem(2 bytes @ 0x20000000)  returns TRUE (0004ms, 0865ms total)
T1918 001:393 JLINK_ReadReg(R15 (PC))  returns 0x20000000 (0000ms, 0861ms total)
T1918 001:393 JLINK_ClrBPEx(BPHandle = 0x00000007)  returns 0x00 (0000ms, 0861ms total)
T1918 001:393 JLINK_ReadReg(R0)  returns 0x00000000 (0000ms, 0861ms total)
T1918 001:395 JLINK_WriteMem(0x20000164, 0x0400 Bytes, ...) - Data: FF F7 54 FF 4F F4 00 61 7B 48 02 F0 52 F8 10 BD ... -- CPU_WriteMem(1024 bytes @ 0x20000164)  returns 0x400 (0012ms, 0873ms total)
T1918 001:407 JLINK_WriteReg(R0, 0x08000C00)  returns 0x00 (0001ms, 0874ms total)
T1918 001:408 JLINK_WriteReg(R1, 0x00000400)  returns 0x00 (0000ms, 0874ms total)
T1918 001:408 JLINK_WriteReg(R2, 0x20000164)  returns 0x00 (0000ms, 0874ms total)
T1918 001:408 JLINK_WriteReg(R3, 0x00000000)  returns 0x00 (0000ms, 0874ms total)
T1918 001:408 JLINK_WriteReg(R4, 0x00000000)  returns 0x00 (0000ms, 0874ms total)
T1918 001:408 JLINK_WriteReg(R5, 0x00000000)  returns 0x00 (0000ms, 0874ms total)
T1918 001:408 JLINK_WriteReg(R6, 0x00000000)  returns 0x00 (0000ms, 0874ms total)
T1918 001:408 JLINK_WriteReg(R7, 0x00000000)  returns 0x00 (0000ms, 0874ms total)
T1918 001:408 JLINK_WriteReg(R8, 0x00000000)  returns 0x00 (0000ms, 0874ms total)
T1918 001:408 JLINK_WriteReg(R9, 0x20000160)  returns 0x00 (0000ms, 0874ms total)
T1918 001:408 JLINK_WriteReg(R10, 0x00000000)  returns 0x00 (0000ms, 0874ms total)
T1918 001:408 JLINK_WriteReg(R11, 0x00000000)  returns 0x00 (0000ms, 0874ms total)
T1918 001:408 JLINK_WriteReg(R12, 0x00000000)  returns 0x00 (0000ms, 0874ms total)
T1918 001:408 JLINK_WriteReg(R13 (SP), 0x20001000)  returns 0x00 (0000ms, 0874ms total)
T1918 001:408 JLINK_WriteReg(R14, 0x20000001)  returns 0x00 (0000ms, 0874ms total)
T1918 001:408 JLINK_WriteReg(R15 (PC), 0x200000F4)  returns 0x00 (0000ms, 0874ms total)
T1918 001:408 JLINK_WriteReg(XPSR, 0x01000000)  returns 0x00 (0000ms, 0874ms total)
T1918 001:408 JLINK_WriteReg(MSP, 0x20001000)  returns 0x00 (0000ms, 0874ms total)
T1918 001:408 JLINK_WriteReg(PSP, 0x20001000)  returns 0x00 (0000ms, 0874ms total)
T1918 001:408 JLINK_WriteReg(CFBP, 0x00000000)  returns 0x00 (0000ms, 0874ms total)
T1918 001:408 JLINK_SetBPEx(Addr = 0x20000000, Type = 0xFFFFFFF2)  returns 0x00000008 (0000ms, 0874ms total)
T1918 001:408 JLINK_Go() -- CPU_ReadMem(4 bytes @ 0xE0001000) (0003ms, 0877ms total)
T1918 001:411 JLINK_IsHalted()  returns FALSE (0001ms, 0878ms total)
T1918 001:418 JLINK_IsHalted()  returns FALSE (0000ms, 0877ms total)
T1918 001:420 JLINK_IsHalted()  returns FALSE (0000ms, 0877ms total)
T1918 001:422 JLINK_IsHalted()  returns FALSE (0000ms, 0877ms total)
T1918 001:428 JLINK_IsHalted()  returns FALSE (0000ms, 0877ms total)
T1918 001:430 JLINK_IsHalted()  returns FALSE (0000ms, 0877ms total)
T1918 001:432 JLINK_IsHalted()  returns FALSE (0000ms, 0877ms total)
T1918 001:434 JLINK_IsHalted()  returns FALSE (0000ms, 0877ms total)
T1918 001:436 JLINK_IsHalted()  returns FALSE (0000ms, 0877ms total)
T1918 001:438 JLINK_IsHalted()  returns FALSE (0000ms, 0877ms total)
T1918 001:440 JLINK_IsHalted()  returns FALSE (0000ms, 0877ms total)
T1918 001:442 JLINK_IsHalted() -- CPU_ReadMem(2 bytes @ 0x20000000)  returns TRUE (0004ms, 0881ms total)
T1918 001:446 JLINK_ReadReg(R15 (PC))  returns 0x20000000 (0000ms, 0877ms total)
T1918 001:446 JLINK_ClrBPEx(BPHandle = 0x00000008)  returns 0x00 (0000ms, 0877ms total)
T1918 001:446 JLINK_ReadReg(R0)  returns 0x00000000 (0000ms, 0877ms total)
T1918 001:448 JLINK_WriteMem(0x20000164, 0x0400 Bytes, ...) - Data: 03 21 C2 68 30 46 05 F0 C3 FA 06 46 0A 23 32 46 ... -- CPU_WriteMem(1024 bytes @ 0x20000164)  returns 0x400 (0012ms, 0889ms total)
T1918 001:460 JLINK_WriteReg(R0, 0x08001000)  returns 0x00 (0000ms, 0889ms total)
T1918 001:460 JLINK_WriteReg(R1, 0x00000400)  returns 0x00 (0000ms, 0889ms total)
T1918 001:460 JLINK_WriteReg(R2, 0x20000164)  returns 0x00 (0001ms, 0890ms total)
T1918 001:461 JLINK_WriteReg(R3, 0x00000000)  returns 0x00 (0000ms, 0890ms total)
T1918 001:461 JLINK_WriteReg(R4, 0x00000000)  returns 0x00 (0000ms, 0890ms total)
T1918 001:461 JLINK_WriteReg(R5, 0x00000000)  returns 0x00 (0000ms, 0890ms total)
T1918 001:461 JLINK_WriteReg(R6, 0x00000000)  returns 0x00 (0000ms, 0890ms total)
T1918 001:461 JLINK_WriteReg(R7, 0x00000000)  returns 0x00 (0000ms, 0890ms total)
T1918 001:461 JLINK_WriteReg(R8, 0x00000000)  returns 0x00 (0000ms, 0890ms total)
T1918 001:461 JLINK_WriteReg(R9, 0x20000160)  returns 0x00 (0000ms, 0890ms total)
T1918 001:461 JLINK_WriteReg(R10, 0x00000000)  returns 0x00 (0000ms, 0890ms total)
T1918 001:461 JLINK_WriteReg(R11, 0x00000000)  returns 0x00 (0000ms, 0890ms total)
T1918 001:461 JLINK_WriteReg(R12, 0x00000000)  returns 0x00 (0000ms, 0890ms total)
T1918 001:461 JLINK_WriteReg(R13 (SP), 0x20001000)  returns 0x00 (0000ms, 0890ms total)
T1918 001:461 JLINK_WriteReg(R14, 0x20000001)  returns 0x00 (0000ms, 0890ms total)
T1918 001:461 JLINK_WriteReg(R15 (PC), 0x200000F4)  returns 0x00 (0000ms, 0890ms total)
T1918 001:461 JLINK_WriteReg(XPSR, 0x01000000)  returns 0x00 (0000ms, 0890ms total)
T1918 001:461 JLINK_WriteReg(MSP, 0x20001000)  returns 0x00 (0000ms, 0890ms total)
T1918 001:461 JLINK_WriteReg(PSP, 0x20001000)  returns 0x00 (0000ms, 0890ms total)
T1918 001:461 JLINK_WriteReg(CFBP, 0x00000000)  returns 0x00 (0000ms, 0890ms total)
T1918 001:461 JLINK_SetBPEx(Addr = 0x20000000, Type = 0xFFFFFFF2)  returns 0x00000009 (0000ms, 0890ms total)
T1918 001:461 JLINK_Go() -- CPU_ReadMem(4 bytes @ 0xE0001000) (0003ms, 0893ms total)
T1918 001:464 JLINK_IsHalted()  returns FALSE (0001ms, 0894ms total)
T1918 001:467 JLINK_IsHalted()  returns FALSE (0000ms, 0893ms total)
T1918 001:469 JLINK_IsHalted()  returns FALSE (0000ms, 0893ms total)
T1918 001:479 JLINK_IsHalted()  returns FALSE (0000ms, 0893ms total)
T1918 001:481 JLINK_IsHalted()  returns FALSE (0000ms, 0893ms total)
T1918 001:483 JLINK_IsHalted()  returns FALSE (0000ms, 0893ms total)
T1918 001:485 JLINK_IsHalted()  returns FALSE (0000ms, 0893ms total)
T1918 001:487 JLINK_IsHalted()  returns FALSE (0000ms, 0893ms total)
T1918 001:489 JLINK_IsHalted()  returns FALSE (0000ms, 0893ms total)
T1918 001:491 JLINK_IsHalted()  returns FALSE (0000ms, 0893ms total)
T1918 001:493 JLINK_IsHalted()  returns FALSE (0000ms, 0893ms total)
T1918 001:495 JLINK_IsHalted() -- CPU_ReadMem(2 bytes @ 0x20000000)  returns TRUE (0004ms, 0897ms total)
T1918 001:499 JLINK_ReadReg(R15 (PC))  returns 0x20000000 (0000ms, 0893ms total)
T1918 001:499 JLINK_ClrBPEx(BPHandle = 0x00000009)  returns 0x00 (0000ms, 0893ms total)
T1918 001:499 JLINK_ReadReg(R0)  returns 0x00000000 (0000ms, 0893ms total)
T1918 001:501 JLINK_WriteMem(0x20000164, 0x0400 Bytes, ...) - Data: DA 00 00 20 D6 00 00 20 D8 00 00 20 2D E9 FF 5F ... -- CPU_WriteMem(1024 bytes @ 0x20000164)  returns 0x400 (0012ms, 0905ms total)
T1918 001:513 JLINK_WriteReg(R0, 0x08001400)  returns 0x00 (0000ms, 0905ms total)
T1918 001:513 JLINK_WriteReg(R1, 0x00000400)  returns 0x00 (0000ms, 0905ms total)
T1918 001:513 JLINK_WriteReg(R2, 0x20000164)  returns 0x00 (0000ms, 0905ms total)
T1918 001:513 JLINK_WriteReg(R3, 0x00000000)  returns 0x00 (0000ms, 0905ms total)
T1918 001:513 JLINK_WriteReg(R4, 0x00000000)  returns 0x00 (0000ms, 0905ms total)
T1918 001:513 JLINK_WriteReg(R5, 0x00000000)  returns 0x00 (0000ms, 0905ms total)
T1918 001:514 JLINK_WriteReg(R6, 0x00000000)  returns 0x00 (0000ms, 0906ms total)
T1918 001:514 JLINK_WriteReg(R7, 0x00000000)  returns 0x00 (0000ms, 0906ms total)
T1918 001:514 JLINK_WriteReg(R8, 0x00000000)  returns 0x00 (0000ms, 0906ms total)
T1918 001:514 JLINK_WriteReg(R9, 0x20000160)  returns 0x00 (0000ms, 0906ms total)
T1918 001:514 JLINK_WriteReg(R10, 0x00000000)  returns 0x00 (0000ms, 0906ms total)
T1918 001:514 JLINK_WriteReg(R11, 0x00000000)  returns 0x00 (0000ms, 0906ms total)
T1918 001:514 JLINK_WriteReg(R12, 0x00000000)  returns 0x00 (0000ms, 0906ms total)
T1918 001:514 JLINK_WriteReg(R13 (SP), 0x20001000)  returns 0x00 (0000ms, 0906ms total)
T1918 001:514 JLINK_WriteReg(R14, 0x20000001)  returns 0x00 (0000ms, 0906ms total)
T1918 001:514 JLINK_WriteReg(R15 (PC), 0x200000F4)  returns 0x00 (0000ms, 0906ms total)
T1918 001:514 JLINK_WriteReg(XPSR, 0x01000000)  returns 0x00 (0000ms, 0906ms total)
T1918 001:514 JLINK_WriteReg(MSP, 0x20001000)  returns 0x00 (0000ms, 0906ms total)
T1918 001:514 JLINK_WriteReg(PSP, 0x20001000)  returns 0x00 (0000ms, 0906ms total)
T1918 001:514 JLINK_WriteReg(CFBP, 0x00000000)  returns 0x00 (0000ms, 0906ms total)
T1918 001:514 JLINK_SetBPEx(Addr = 0x20000000, Type = 0xFFFFFFF2)  returns 0x0000000A (0000ms, 0906ms total)
T1918 001:514 JLINK_Go() -- CPU_ReadMem(4 bytes @ 0xE0001000) (0003ms, 0909ms total)
T1918 001:517 JLINK_IsHalted()  returns FALSE (0000ms, 0909ms total)
T1918 001:520 JLINK_IsHalted()  returns FALSE (0000ms, 0909ms total)
T1918 001:522 JLINK_IsHalted()  returns FALSE (0000ms, 0909ms total)
T1918 001:524 JLINK_IsHalted()  returns FALSE (0000ms, 0909ms total)
T1918 001:526 JLINK_IsHalted()  returns FALSE (0000ms, 0909ms total)
T1918 001:528 JLINK_IsHalted()  returns FALSE (0000ms, 0909ms total)
T1918 001:530 JLINK_IsHalted()  returns FALSE (0000ms, 0909ms total)
T1918 001:539 JLINK_IsHalted()  returns FALSE (0000ms, 0909ms total)
T1918 001:541 JLINK_IsHalted()  returns FALSE (0000ms, 0909ms total)
T1918 001:543 JLINK_IsHalted()  returns FALSE (0000ms, 0909ms total)
T1918 001:545 JLINK_IsHalted()  returns FALSE (0000ms, 0909ms total)
T1918 001:547 JLINK_IsHalted()  returns FALSE (0000ms, 0909ms total)
T1918 001:549 JLINK_IsHalted() -- CPU_ReadMem(2 bytes @ 0x20000000)  returns TRUE (0004ms, 0913ms total)
T1918 001:553 JLINK_ReadReg(R15 (PC))  returns 0x20000000 (0000ms, 0909ms total)
T1918 001:553 JLINK_ClrBPEx(BPHandle = 0x0000000A)  returns 0x00 (0000ms, 0909ms total)
T1918 001:553 JLINK_ReadReg(R0)  returns 0x00000000 (0000ms, 0909ms total)
T1918 001:554 JLINK_WriteMem(0x20000164, 0x0400 Bytes, ...) - Data: 00 10 21 46 41 48 FE F7 7D FE 46 E0 E0 20 A9 21 ... -- CPU_WriteMem(1024 bytes @ 0x20000164)  returns 0x400 (0013ms, 0922ms total)
T1918 001:567 JLINK_WriteReg(R0, 0x08001800)  returns 0x00 (0000ms, 0922ms total)
T1918 001:567 JLINK_WriteReg(R1, 0x00000400)  returns 0x00 (0000ms, 0922ms total)
T1918 001:567 JLINK_WriteReg(R2, 0x20000164)  returns 0x00 (0000ms, 0922ms total)
T1918 001:567 JLINK_WriteReg(R3, 0x00000000)  returns 0x00 (0000ms, 0922ms total)
T1918 001:567 JLINK_WriteReg(R4, 0x00000000)  returns 0x00 (0000ms, 0922ms total)
T1918 001:567 JLINK_WriteReg(R5, 0x00000000)  returns 0x00 (0000ms, 0922ms total)
T1918 001:567 JLINK_WriteReg(R6, 0x00000000)  returns 0x00 (0000ms, 0922ms total)
T1918 001:567 JLINK_WriteReg(R7, 0x00000000)  returns 0x00 (0001ms, 0923ms total)
T1918 001:568 JLINK_WriteReg(R8, 0x00000000)  returns 0x00 (0000ms, 0923ms total)
T1918 001:568 JLINK_WriteReg(R9, 0x20000160)  returns 0x00 (0000ms, 0923ms total)
T1918 001:568 JLINK_WriteReg(R10, 0x00000000)  returns 0x00 (0000ms, 0923ms total)
T1918 001:568 JLINK_WriteReg(R11, 0x00000000)  returns 0x00 (0000ms, 0923ms total)
T1918 001:568 JLINK_WriteReg(R12, 0x00000000)  returns 0x00 (0000ms, 0923ms total)
T1918 001:568 JLINK_WriteReg(R13 (SP), 0x20001000)  returns 0x00 (0000ms, 0923ms total)
T1918 001:568 JLINK_WriteReg(R14, 0x20000001)  returns 0x00 (0000ms, 0923ms total)
T1918 001:568 JLINK_WriteReg(R15 (PC), 0x200000F4)  returns 0x00 (0000ms, 0923ms total)
T1918 001:568 JLINK_WriteReg(XPSR, 0x01000000)  returns 0x00 (0000ms, 0923ms total)
T1918 001:568 JLINK_WriteReg(MSP, 0x20001000)  returns 0x00 (0000ms, 0923ms total)
T1918 001:568 JLINK_WriteReg(PSP, 0x20001000)  returns 0x00 (0000ms, 0923ms total)
T1918 001:568 JLINK_WriteReg(CFBP, 0x00000000)  returns 0x00 (0000ms, 0923ms total)
T1918 001:568 JLINK_SetBPEx(Addr = 0x20000000, Type = 0xFFFFFFF2)  returns 0x0000000B (0000ms, 0923ms total)
T1918 001:568 JLINK_Go() -- CPU_ReadMem(4 bytes @ 0xE0001000) (0003ms, 0926ms total)
T1918 001:571 JLINK_IsHalted()  returns FALSE (0000ms, 0926ms total)
T1918 001:573 JLINK_IsHalted()  returns FALSE (0000ms, 0926ms total)
T1918 001:575 JLINK_IsHalted()  returns FALSE (0000ms, 0926ms total)
T1918 001:577 JLINK_IsHalted()  returns FALSE (0000ms, 0926ms total)
T1918 001:579 JLINK_IsHalted()  returns FALSE (0000ms, 0926ms total)
T1918 001:581 JLINK_IsHalted()  returns FALSE (0000ms, 0926ms total)
T1918 001:583 JLINK_IsHalted()  returns FALSE (0000ms, 0926ms total)
T1918 001:585 JLINK_IsHalted()  returns FALSE (0000ms, 0926ms total)
T1918 001:587 JLINK_IsHalted()  returns FALSE (0000ms, 0926ms total)
T1918 001:589 JLINK_IsHalted()  returns FALSE (0000ms, 0926ms total)
T1918 001:591 JLINK_IsHalted()  returns FALSE (0000ms, 0926ms total)
T1918 001:593 JLINK_IsHalted()  returns FALSE (0000ms, 0926ms total)
T1918 001:599 JLINK_IsHalted()  returns FALSE (0000ms, 0926ms total)
T1918 001:601 JLINK_IsHalted()  returns FALSE (0000ms, 0926ms total)
T1918 001:603 JLINK_IsHalted() -- CPU_ReadMem(2 bytes @ 0x20000000)  returns TRUE (0004ms, 0930ms total)
T1918 001:607 JLINK_ReadReg(R15 (PC))  returns 0x20000000 (0000ms, 0926ms total)
T1918 001:607 JLINK_ClrBPEx(BPHandle = 0x0000000B)  returns 0x00 (0000ms, 0926ms total)
T1918 001:607 JLINK_ReadReg(R0)  returns 0x00000000 (0000ms, 0926ms total)
T1918 001:608 JLINK_WriteMem(0x20000164, 0x0400 Bytes, ...) - Data: 55 FF E4 48 00 88 40 1C E2 49 08 80 01 21 DE 48 ... -- CPU_WriteMem(1024 bytes @ 0x20000164)  returns 0x400 (0013ms, 0939ms total)
T1918 001:622 JLINK_WriteReg(R0, 0x08001C00)  returns 0x00 (0000ms, 0939ms total)
T1918 001:622 JLINK_WriteReg(R1, 0x00000400)  returns 0x00 (0000ms, 0939ms total)
T1918 001:622 JLINK_WriteReg(R2, 0x20000164)  returns 0x00 (0000ms, 0939ms total)
T1918 001:622 JLINK_WriteReg(R3, 0x00000000)  returns 0x00 (0000ms, 0939ms total)
T1918 001:622 JLINK_WriteReg(R4, 0x00000000)  returns 0x00 (0000ms, 0939ms total)
T1918 001:622 JLINK_WriteReg(R5, 0x00000000)  returns 0x00 (0000ms, 0939ms total)
T1918 001:622 JLINK_WriteReg(R6, 0x00000000)  returns 0x00 (0000ms, 0939ms total)
T1918 001:622 JLINK_WriteReg(R7, 0x00000000)  returns 0x00 (0000ms, 0939ms total)
T1918 001:622 JLINK_WriteReg(R8, 0x00000000)  returns 0x00 (0000ms, 0939ms total)
T1918 001:622 JLINK_WriteReg(R9, 0x20000160)  returns 0x00 (0000ms, 0939ms total)
T1918 001:622 JLINK_WriteReg(R10, 0x00000000)  returns 0x00 (0000ms, 0939ms total)
T1918 001:622 JLINK_WriteReg(R11, 0x00000000)  returns 0x00 (0000ms, 0939ms total)
T1918 001:622 JLINK_WriteReg(R12, 0x00000000)  returns 0x00 (0000ms, 0939ms total)
T1918 001:622 JLINK_WriteReg(R13 (SP), 0x20001000)  returns 0x00 (0000ms, 0939ms total)
T1918 001:622 JLINK_WriteReg(R14, 0x20000001)  returns 0x00 (0000ms, 0939ms total)
T1918 001:622 JLINK_WriteReg(R15 (PC), 0x200000F4)  returns 0x00 (0000ms, 0939ms total)
T1918 001:622 JLINK_WriteReg(XPSR, 0x01000000)  returns 0x00 (0000ms, 0939ms total)
T1918 001:622 JLINK_WriteReg(MSP, 0x20001000)  returns 0x00 (0000ms, 0939ms total)
T1918 001:622 JLINK_WriteReg(PSP, 0x20001000)  returns 0x00 (0000ms, 0939ms total)
T1918 001:622 JLINK_WriteReg(CFBP, 0x00000000)  returns 0x00 (0001ms, 0940ms total)
T1918 001:623 JLINK_SetBPEx(Addr = 0x20000000, Type = 0xFFFFFFF2)  returns 0x0000000C (0000ms, 0940ms total)
T1918 001:623 JLINK_Go() -- CPU_ReadMem(4 bytes @ 0xE0001000) (0002ms, 0942ms total)
T1918 001:625 JLINK_IsHalted()  returns FALSE (0001ms, 0943ms total)
T1918 001:628 JLINK_IsHalted()  returns FALSE (0000ms, 0942ms total)
T1918 001:630 JLINK_IsHalted()  returns FALSE (0000ms, 0942ms total)
T1918 001:632 JLINK_IsHalted()  returns FALSE (0000ms, 0942ms total)
T1918 001:634 JLINK_IsHalted()  returns FALSE (0000ms, 0942ms total)
T1918 001:636 JLINK_IsHalted()  returns FALSE (0000ms, 0942ms total)
T1918 001:638 JLINK_IsHalted()  returns FALSE (0000ms, 0942ms total)
T1918 001:640 JLINK_IsHalted()  returns FALSE (0000ms, 0942ms total)
T1918 001:648 JLINK_IsHalted()  returns FALSE (0000ms, 0942ms total)
T1918 001:650 JLINK_IsHalted()  returns FALSE (0000ms, 0942ms total)
T1918 001:652 JLINK_IsHalted()  returns FALSE (0000ms, 0942ms total)
T1918 001:654 JLINK_IsHalted()  returns FALSE (0000ms, 0942ms total)
T1918 001:656 JLINK_IsHalted() -- CPU_ReadMem(2 bytes @ 0x20000000)  returns TRUE (0004ms, 0946ms total)
T1918 001:660 JLINK_ReadReg(R15 (PC))  returns 0x20000000 (0000ms, 0942ms total)
T1918 001:660 JLINK_ClrBPEx(BPHandle = 0x0000000C)  returns 0x00 (0000ms, 0942ms total)
T1918 001:660 JLINK_ReadReg(R0)  returns 0x00000000 (0000ms, 0942ms total)
T1918 001:661 JLINK_WriteMem(0x20000164, 0x0400 Bytes, ...) - Data: A1 21 27 20 04 F0 E9 F9 40 F2 0C 52 A2 21 27 20 ... -- CPU_WriteMem(1024 bytes @ 0x20000164)  returns 0x400 (0013ms, 0955ms total)
T1918 001:675 JLINK_WriteReg(R0, 0x08002000)  returns 0x00 (0000ms, 0955ms total)
T1918 001:675 JLINK_WriteReg(R1, 0x00000400)  returns 0x00 (0000ms, 0955ms total)
T1918 001:675 JLINK_WriteReg(R2, 0x20000164)  returns 0x00 (0000ms, 0955ms total)
T1918 001:676 JLINK_WriteReg(R3, 0x00000000)  returns 0x00 (0000ms, 0956ms total)
T1918 001:676 JLINK_WriteReg(R4, 0x00000000)  returns 0x00 (0000ms, 0956ms total)
T1918 001:676 JLINK_WriteReg(R5, 0x00000000)  returns 0x00 (0000ms, 0956ms total)
T1918 001:676 JLINK_WriteReg(R6, 0x00000000)  returns 0x00 (0000ms, 0956ms total)
T1918 001:676 JLINK_WriteReg(R7, 0x00000000)  returns 0x00 (0000ms, 0956ms total)
T1918 001:676 JLINK_WriteReg(R8, 0x00000000)  returns 0x00 (0000ms, 0956ms total)
T1918 001:676 JLINK_WriteReg(R9, 0x20000160)  returns 0x00 (0000ms, 0956ms total)
T1918 001:676 JLINK_WriteReg(R10, 0x00000000)  returns 0x00 (0000ms, 0956ms total)
T1918 001:676 JLINK_WriteReg(R11, 0x00000000)  returns 0x00 (0000ms, 0956ms total)
T1918 001:676 JLINK_WriteReg(R12, 0x00000000)  returns 0x00 (0000ms, 0956ms total)
T1918 001:676 JLINK_WriteReg(R13 (SP), 0x20001000)  returns 0x00 (0000ms, 0956ms total)
T1918 001:676 JLINK_WriteReg(R14, 0x20000001)  returns 0x00 (0000ms, 0956ms total)
T1918 001:676 JLINK_WriteReg(R15 (PC), 0x200000F4)  returns 0x00 (0000ms, 0956ms total)
T1918 001:676 JLINK_WriteReg(XPSR, 0x01000000)  returns 0x00 (0000ms, 0956ms total)
T1918 001:676 JLINK_WriteReg(MSP, 0x20001000)  returns 0x00 (0000ms, 0956ms total)
T1918 001:676 JLINK_WriteReg(PSP, 0x20001000)  returns 0x00 (0000ms, 0956ms total)
T1918 001:676 JLINK_WriteReg(CFBP, 0x00000000)  returns 0x00 (0000ms, 0956ms total)
T1918 001:676 JLINK_SetBPEx(Addr = 0x20000000, Type = 0xFFFFFFF2)  returns 0x0000000D (0000ms, 0956ms total)
T1918 001:676 JLINK_Go() -- CPU_ReadMem(4 bytes @ 0xE0001000) (0003ms, 0959ms total)
T1918 001:679 JLINK_IsHalted()  returns FALSE (0001ms, 0960ms total)
T1918 001:694 JLINK_IsHalted()  returns FALSE (0000ms, 0959ms total)
T1918 001:696 JLINK_IsHalted()  returns FALSE (0000ms, 0959ms total)
T1918 001:698 JLINK_IsHalted()  returns FALSE (0000ms, 0959ms total)
T1918 001:700 JLINK_IsHalted()  returns FALSE (0000ms, 0959ms total)
T1918 001:702 JLINK_IsHalted()  returns FALSE (0000ms, 0959ms total)
T1918 001:704 JLINK_IsHalted()  returns FALSE (0000ms, 0959ms total)
T1918 001:706 JLINK_IsHalted()  returns FALSE (0000ms, 0959ms total)
T1918 001:708 JLINK_IsHalted()  returns FALSE (0000ms, 0959ms total)
T1918 001:710 JLINK_IsHalted() -- CPU_ReadMem(2 bytes @ 0x20000000)  returns TRUE (0004ms, 0963ms total)
T1918 001:714 JLINK_ReadReg(R15 (PC))  returns 0x20000000 (0000ms, 0959ms total)
T1918 001:714 JLINK_ClrBPEx(BPHandle = 0x0000000D)  returns 0x00 (0000ms, 0959ms total)
T1918 001:714 JLINK_ReadReg(R0)  returns 0x00000000 (0000ms, 0959ms total)
T1918 001:716 JLINK_WriteMem(0x20000164, 0x0400 Bytes, ...) - Data: C3 60 10 BD 00 21 01 60 41 60 81 60 C1 60 01 61 ... -- CPU_WriteMem(1024 bytes @ 0x20000164)  returns 0x400 (0012ms, 0971ms total)
T1918 001:728 JLINK_WriteReg(R0, 0x08002400)  returns 0x00 (0000ms, 0971ms total)
T1918 001:728 JLINK_WriteReg(R1, 0x00000400)  returns 0x00 (0000ms, 0971ms total)
T1918 001:728 JLINK_WriteReg(R2, 0x20000164)  returns 0x00 (0001ms, 0972ms total)
T1918 001:729 JLINK_WriteReg(R3, 0x00000000)  returns 0x00 (0000ms, 0972ms total)
T1918 001:729 JLINK_WriteReg(R4, 0x00000000)  returns 0x00 (0000ms, 0972ms total)
T1918 001:729 JLINK_WriteReg(R5, 0x00000000)  returns 0x00 (0000ms, 0972ms total)
T1918 001:729 JLINK_WriteReg(R6, 0x00000000)  returns 0x00 (0000ms, 0972ms total)
T1918 001:729 JLINK_WriteReg(R7, 0x00000000)  returns 0x00 (0000ms, 0972ms total)
T1918 001:729 JLINK_WriteReg(R8, 0x00000000)  returns 0x00 (0000ms, 0972ms total)
T1918 001:729 JLINK_WriteReg(R9, 0x20000160)  returns 0x00 (0000ms, 0972ms total)
T1918 001:729 JLINK_WriteReg(R10, 0x00000000)  returns 0x00 (0000ms, 0972ms total)
T1918 001:729 JLINK_WriteReg(R11, 0x00000000)  returns 0x00 (0000ms, 0972ms total)
T1918 001:729 JLINK_WriteReg(R12, 0x00000000)  returns 0x00 (0000ms, 0972ms total)
